
TE8A8 000:316 SEGGER J-Link V4.96d Log File (0001ms, 0272ms total)
TE8A8 000:316 DLL Compiled: Jan 29 2015 11:45:37 (0001ms, 0272ms total)
TE8A8 000:316 Logging started @ 2015-06-10 18:06 (0001ms, 0272ms total)
TE8A8 000:317 JLINK_SetWarnOutHandler(...) (0000ms, 0272ms total)
TE8A8 000:317 JLINK_OpenEx(...)
Firmware: J-Link V9 compiled Apr 21 2015 18:10:40
Hardware: V9.20
Feature(s): GDB, RDI, FlashBP, FlashDL, JFlash  returns O.K. (0269ms, 0541ms total)
TE8A8 000:588 JLINK_SetErrorOutHandler(...) (0002ms, 0543ms total)
TE8A8 000:590 JLINK_ExecCommand("ProjectFile = "C:\ARTYSON\My_pix4\JLinkSettings.ini"", ...)Device "STM32F427VI" selected.  returns 0x00 (0002ms, 0545ms total)
TE8A8 000:592 JLINK_ExecCommand("Device = STM32F427VITx", ...)Device "STM32F427VI" selected.  returns 0x00 (0005ms, 0550ms total)
TE8A8 000:597 JLINK_ExecCommand("DisableConnectionTimeout", ...)  returns 0x01 (0000ms, 0550ms total)
TE8A8 000:597 JLINK_GetHardwareVersion()  returns 0x16760 (0000ms, 0550ms total)
TE8A8 000:597 JLINK_GetDLLVersion()  returns 49604 (0000ms, 0550ms total)
TE8A8 000:597 JLINK_GetFirmwareString(...) (0001ms, 0551ms total)
TE8A8 000:598 JLINK_GetDLLVersion()  returns 49604 (0000ms, 0551ms total)
TE8A8 000:598 JLINK_GetCompileDateTime() (0001ms, 0552ms total)
TE8A8 000:599 JLINK_GetFirmwareString(...) (0000ms, 0552ms total)
TE8A8 000:599 JLINK_GetHardwareVersion()  returns 0x16760 (0000ms, 0552ms total)
TE8A8 000:599 JLINK_TIF_Select(JLINKARM_TIF_SWD)  returns 0x00 (0003ms, 0555ms total)
TE8A8 000:602 JLINK_SetSpeed(2000) (0001ms, 0556ms total)
TE8A8 000:603 JLINK_GetId() >0x108 TIF>Found SWD-DP with ID 0x2BA01477 >0x0D TIF> >0x28 TIF> >0x0D TIF> >0x28 TIF> >0x0D TIF> >0x21 TIF> >0x0D TIF> >0x28 TIF> >0x0D TIF> >0x28 TIF> >0x0D TIF> >0x28 TIF> >0x0D TIF> >0x21 TIF> >0x0D TIF> >0x21 TIF> >0x0D TIF> >0x28 TIF> >0x0D TIF> >0x21 TIF> >0x0D TIF> >0x21 TIF> >0x0D TIF> >0x28 TIF> >0x0D TIF> >0x21 TIF> >0x0D TIF> >0x21 TIF> >0x108 TIF>Found SWD-DP with ID 0x2BA01477 >0x0D TIF> >0x21 TIF> >0x0D TIF> >0x28 TIF> >0x0D TIF> >0x28 TIF> >0x0D TIF> >0x21 TIF>
 >0x0D TIF> >0x28 TIF> >0x0D TIF> >0x21 TIF> >0x0D TIF> >0x21 TIF> >0x0D TIF> >0x21 TIF> >0x0D TIF> >0x21 TIF> >0x0D TIF> >0x28 TIF> >0x0D TIF> >0x28 TIF> >0x0D TIF> >0x21 TIF> >0x0D TIF> >0x28 TIF> >0x0D TIF> >0x28 TIF> >0x0D TIF> >0x28 TIF> >0x0D TIF> >0x21 TIF> >0x0D TIF> >0x21 TIF> >0x0D TIF> >0x28 TIF> >0x0D TIF> >0x21 TIF> >0x0D TIF> >0x21 TIF>Found Cortex-M4 r0p1, Little endian. -- CPU_WriteMem(4 bytes @ 0xE0002000) -- CPU_ReadMem(4 bytes @ 0xE000EDF0) -- CPU_ReadMem(4 bytes @ 0xE0002000)
FPUnit: 6 code (BP) slots and 2 literal slots -- CPU_ReadMem(4 bytes @ 0xE000EDFC) -- CPU_ReadMem(4 bytes @ 0xE0001000) -- CPU_WriteMem(4 bytes @ 0xE0001000) -- CPU_ReadMem(4 bytes @ 0xE000ED88) -- CPU_WriteMem(4 bytes @ 0xE000ED88) -- CPU_ReadMem(4 bytes @ 0xE000ED88) -- CPU_WriteMem(4 bytes @ 0xE000ED88) -- CPU_ReadMem(4 bytes @ 0xE00FF010)TPIU fitted. -- CPU_ReadMem(4 bytes @ 0xE00FF014)ETM fitted. -- CPU_ReadMem(4 bytes @ 0xE00FF018) >0x0D TIF> >0x21 TIF>  returns 0x2BA01477 (0034ms, 0590ms total)
TE8A8 000:637 JLINK_GetDLLVersion()  returns 49604 (0000ms, 0590ms total)
TE8A8 000:637 JLINK_CORE_GetFound()  returns 0xE0000FF (0000ms, 0590ms total)
TE8A8 000:638 JLINK_GetDebugInfo(0x100) -- Value=0xE00FF003  returns 0x00 (0000ms, 0591ms total)
TE8A8 000:638 JLINK_ReadMem (0xE00FF000, 0x0020 Bytes, ...) -- CPU is running -- CPU_ReadMem(32 bytes @ 0xE00FF000) - Data: 03 F0 F0 FF 03 20 F0 FF 03 30 F0 FF 03 10 F0 FF ...  returns 0x00 (0000ms, 0591ms total)
TE8A8 000:638 JLINK_ReadMem (0xE000EFF0, 0x0010 Bytes, ...) -- CPU is running -- CPU_ReadMem(16 bytes @ 0xE000EFF0) - Data: 0D 00 00 00 E0 00 00 00 05 00 00 00 B1 00 00 00  returns 0x00 (0001ms, 0592ms total)
TE8A8 000:639 JLINK_ReadMem (0xE000EFD0, 0x0020 Bytes, ...) -- CPU is running -- CPU_ReadMem(32 bytes @ 0xE000EFD0) - Data: 04 00 00 00 00 00 00 00 00 00 00 00 00 00 00 00 ...  returns 0x00 (0001ms, 0593ms total)
TE8A8 000:640 JLINK_ReadMem (0xE0001FF0, 0x0010 Bytes, ...) -- CPU is running -- CPU_ReadMem(16 bytes @ 0xE0001FF0) - Data: 0D 00 00 00 E0 00 00 00 05 00 00 00 B1 00 00 00  returns 0x00 (0000ms, 0593ms total)
TE8A8 000:641 JLINK_ReadMem (0xE0001FD0, 0x0020 Bytes, ...) -- CPU is running -- CPU_ReadMem(32 bytes @ 0xE0001FD0) - Data: 04 00 00 00 00 00 00 00 00 00 00 00 00 00 00 00 ...  returns 0x00 (0000ms, 0594ms total)
TE8A8 000:641 JLINK_ReadMem (0xE0002FF0, 0x0010 Bytes, ...) -- CPU is running -- CPU_ReadMem(16 bytes @ 0xE0002FF0) - Data: 0D 00 00 00 E0 00 00 00 05 00 00 00 B1 00 00 00  returns 0x00 (0001ms, 0595ms total)
TE8A8 000:642 JLINK_ReadMem (0xE0002FD0, 0x0020 Bytes, ...) -- CPU is running -- CPU_ReadMem(32 bytes @ 0xE0002FD0) - Data: 04 00 00 00 00 00 00 00 00 00 00 00 00 00 00 00 ...  returns 0x00 (0001ms, 0596ms total)
TE8A8 000:643 JLINK_ReadMem (0xE0000FF0, 0x0010 Bytes, ...) -- CPU is running -- CPU_ReadMem(16 bytes @ 0xE0000FF0) - Data: 0D 00 00 00 E0 00 00 00 05 00 00 00 B1 00 00 00  returns 0x00 (0000ms, 0596ms total)
TE8A8 000:643 JLINK_ReadMem (0xE0000FD0, 0x0020 Bytes, ...) -- CPU is running -- CPU_ReadMem(32 bytes @ 0xE0000FD0) - Data: 04 00 00 00 00 00 00 00 00 00 00 00 00 00 00 00 ...  returns 0x00 (0001ms, 0597ms total)
TE8A8 000:644 JLINK_ReadMem (0xE0040FF0, 0x0010 Bytes, ...) -- CPU is running -- CPU_ReadMem(16 bytes @ 0xE0040FF0) - Data: 0D 00 00 00 90 00 00 00 05 00 00 00 B1 00 00 00  returns 0x00 (0001ms, 0598ms total)
TE8A8 000:645 JLINK_ReadMem (0xE0040FD0, 0x0020 Bytes, ...) -- CPU is running -- CPU_ReadMem(32 bytes @ 0xE0040FD0) - Data: 04 00 00 00 00 00 00 00 00 00 00 00 00 00 00 00 ...  returns 0x00 (0001ms, 0599ms total)
TE8A8 000:646 JLINK_ReadMem (0xE0041FF0, 0x0010 Bytes, ...) -- CPU is running -- CPU_ReadMem(16 bytes @ 0xE0041FF0) - Data: 0D 00 00 00 90 00 00 00 05 00 00 00 B1 00 00 00  returns 0x00 (0000ms, 0599ms total)
TE8A8 000:646 JLINK_ReadMem (0xE0041FD0, 0x0020 Bytes, ...) -- CPU is running -- CPU_ReadMem(32 bytes @ 0xE0041FD0) - Data: 04 00 00 00 00 00 00 00 00 00 00 00 00 00 00 00 ...  returns 0x00 (0001ms, 0600ms total)
TE8A8 000:647 JLINK_ReadMemU32(0xE000EF40, 0x0001 Items, ...) -- CPU is running -- CPU_ReadMem(4 bytes @ 0xE000EF40) - Data: 21 00 11 10  returns 0x01 (0001ms, 0601ms total)
TE8A8 000:648 JLINK_ReadMemU32(0xE000EF44, 0x0001 Items, ...) -- CPU is running -- CPU_ReadMem(4 bytes @ 0xE000EF44) - Data: 11 00 00 11  returns 0x01 (0000ms, 0601ms total)
TE8A8 000:648 JLINK_ReadMemU32(0xE000ED00, 0x0001 Items, ...) -- CPU is running -- CPU_ReadMem(4 bytes @ 0xE000ED00) - Data: 41 C2 0F 41  returns 0x01 (0001ms, 0602ms total)
TE8A8 000:649 JLINK_SetResetType(JLINKARM_RESET_TYPE_NORMAL)  returns JLINKARM_RESET_TYPE_NORMAL (0000ms, 0602ms total)
TE8A8 000:649 JLINK_Reset() -- CPU is running -- CPU_WriteMem(4 bytes @ 0xE000EDF0) -- CPU is running -- CPU_WriteMem(4 bytes @ 0xE000EDFC) >0x35 TIF> -- CPU is running -- CPU_WriteMem(4 bytes @ 0xE000ED0C) -- CPU is running -- CPU_ReadMem(4 bytes @ 0xE000EDF0) -- CPU is running -- CPU_ReadMem(4 bytes @ 0xE000EDF0) -- CPU is running -- CPU_WriteMem(4 bytes @ 0xE000EDF0) -- CPU is running -- CPU_WriteMem(4 bytes @ 0xE000EDFC) -- CPU is running -- CPU_ReadMem(4 bytes @ 0xE000EDF0)
 -- CPU_WriteMem(4 bytes @ 0xE0002000) -- CPU_ReadMem(4 bytes @ 0xE000EDFC) -- CPU_ReadMem(4 bytes @ 0xE0001000) (0018ms, 0620ms total)
TE8A8 000:667 JLINK_ReadReg(R15 (PC))  returns 0x080001C0 (0000ms, 0620ms total)
TE8A8 000:667 JLINK_ReadReg(XPSR)  returns 0x01000000 (0000ms, 0620ms total)
TE8A8 000:667 JLINK_Halt()  returns 0x00 (0000ms, 0620ms total)
TE8A8 000:667 JLINK_IsHalted()  returns TRUE (0000ms, 0620ms total)
TE8A8 000:667 JLINK_ReadMemU32(0xE000EDF0, 0x0001 Items, ...) -- CPU_ReadMem(4 bytes @ 0xE000EDF0) - Data: 03 00 03 00  returns 0x01 (0001ms, 0621ms total)
TE8A8 000:668 JLINK_WriteU32(0xE000EDF0, 0xA05F0003) -- CPU_WriteMem(4 bytes @ 0xE000EDF0)  returns 0x00 (0000ms, 0621ms total)
TE8A8 000:668 JLINK_WriteU32(0xE000EDFC, 0x01000000) -- CPU_WriteMem(4 bytes @ 0xE000EDFC)  returns 0x00 (0001ms, 0622ms total)
TE8A8 000:669 JLINK_GetHWStatus(...)  returns 0x00 (0001ms, 0623ms total)
TE8A8 000:670 JLINK_GetNumBPUnits(Type = 0xFFFFFF00)  returns 0x06 (0000ms, 0623ms total)
TE8A8 000:670 JLINK_GetNumBPUnits(Type = 0xF0)  returns 0x2000 (0000ms, 0623ms total)
TE8A8 000:670 JLINK_GetNumWPUnits()  returns 0x04 (0000ms, 0623ms total)
TE8A8 000:670 JLINK_GetSpeed()  returns 0x7D0 (0000ms, 0623ms total)
TE8A8 000:671 JLINK_ReadMemU32(0xE000E004, 0x0001 Items, ...) -- CPU_ReadMem(4 bytes @ 0xE000E004) - Data: 02 00 00 00  returns 0x01 (0000ms, 0623ms total)
TE8A8 000:671 JLINK_ReadMemU32(0xE000E004, 0x0001 Items, ...) -- CPU_ReadMem(4 bytes @ 0xE000E004) - Data: 02 00 00 00  returns 0x01 (0001ms, 0624ms total)
TE8A8 000:672 JLINK_WriteMem(0xE0001000, 0x001C Bytes, ...) - Data: 01 00 00 00 00 00 00 00 00 00 00 00 00 00 00 00 ... -- CPU_WriteMem(28 bytes @ 0xE0001000)  returns 0x1C (0001ms, 0625ms total)
TE8A8 000:673 JLINK_ReadMem (0xE0001000, 0x001C Bytes, ...) -- CPU_ReadMem(28 bytes @ 0xE0001000) - Data: 01 00 00 40 00 00 00 00 00 00 00 00 00 00 00 00 ...  returns 0x00 (0000ms, 0625ms total)
TE8A8 000:674 JLINK_ReadReg(R15 (PC))  returns 0x080001C0 (0000ms, 0626ms total)
TE8A8 000:674 JLINK_ReadReg(XPSR)  returns 0x01000000 (0000ms, 0626ms total)
TE8A8 000:747 JLINK_SetResetType(JLINKARM_RESET_TYPE_NORMAL)  returns JLINKARM_RESET_TYPE_NORMAL (0000ms, 0626ms total)
TE8A8 000:747 JLINK_Reset() -- CPU_WriteMem(4 bytes @ 0xE000EDF0) -- CPU_WriteMem(4 bytes @ 0xE000EDFC) >0x35 TIF> -- CPU_WriteMem(4 bytes @ 0xE000ED0C) -- CPU_ReadMem(4 bytes @ 0xE000EDF0) -- CPU_ReadMem(4 bytes @ 0xE000EDF0) -- CPU_WriteMem(4 bytes @ 0xE000EDF0) -- CPU_WriteMem(4 bytes @ 0xE000EDFC) -- CPU is running -- CPU_ReadMem(4 bytes @ 0xE000EDF0) -- CPU_WriteMem(4 bytes @ 0xE0002000) -- CPU_ReadMem(4 bytes @ 0xE000EDFC) -- CPU_ReadMem(4 bytes @ 0xE0001000) (0018ms, 0644ms total)
TE8A8 000:765 JLINK_ReadReg(R15 (PC))  returns 0x080001C0 (0000ms, 0644ms total)
TE8A8 000:765 JLINK_ReadReg(XPSR)  returns 0x01000000 (0000ms, 0644ms total)
TE8A8 000:765 JLINK_ReadMem (0x080001AC, 0x003C Bytes, ...) -- CPU_ReadMem(128 bytes @ 0x08000180) -- Updating C cache (128 bytes @ 0x08000180) -- Read from C cache (60 bytes @ 0x080001AC) - Data: DF F8 0C D0 00 F0 2E F8 00 48 00 47 3D 33 00 08 ...  returns 0x00 (0002ms, 0646ms total)
TE8A8 001:768 JLINK_ReadMem (0x00000000, 0x0001 Bytes, ...) -- CPU_ReadMem(4 bytes @ 0x00000004) -- CPU_ReadMem(64 bytes @ 0x08000000) -- Updating C cache (64 bytes @ 0x08000000) -- Read from C cache (1 bytes @ 0x08000000) - Data: 80  returns 0x00 (0002ms, 0648ms total)
TF700 001:798 JLINK_SetBPEx(Addr = 0x0800333C, Type = 0xFFFFFFF2)  returns 0x00000001 (0000ms, 0648ms total)
TF700 001:798 JLINK_SetBPEx(Addr = 0x0800335A, Type = 0xFFFFFFF2)  returns 0x00000002 (0000ms, 0648ms total)
TF700 001:798 JLINK_SetBPEx(Addr = 0x08003356, Type = 0xFFFFFFF2)  returns 0x00000003 (0000ms, 0648ms total)
TF700 001:798 JLINK_SetBPEx(Addr = 0x080002E6, Type = 0xFFFFFFF2)  returns 0x00000004 (0000ms, 0648ms total)
TF700 001:798 JLINK_Go() -- CPU_WriteMem(4 bytes @ 0xE0002000) -- CPU_WriteMem(4 bytes @ 0xE0002000) -- CPU_WriteMem(4 bytes @ 0xE0002000) -- CPU_WriteMem(4 bytes @ 0xE0002000) -- CPU_WriteMem(4 bytes @ 0xE0002008) -- CPU_WriteMem(4 bytes @ 0xE000200C) -- CPU_WriteMem(4 bytes @ 0xE0002010) -- CPU_WriteMem(4 bytes @ 0xE0002014) -- CPU_WriteMem(4 bytes @ 0xE0002018) -- CPU_WriteMem(4 bytes @ 0xE000201C) -- CPU_WriteMem(4 bytes @ 0xE0001004) (0006ms, 0654ms total)
TF700 001:904 JLINK_IsHalted()  returns TRUE (0003ms, 0657ms total)
TF700 001:907 JLINK_Halt()  returns 0x00 (0000ms, 0654ms total)
TF700 001:907 JLINK_IsHalted()  returns TRUE (0000ms, 0654ms total)
TF700 001:907 JLINK_IsHalted()  returns TRUE (0000ms, 0654ms total)
TF700 001:907 JLINK_IsHalted()  returns TRUE (0000ms, 0654ms total)
TF700 001:907 JLINK_ReadReg(R15 (PC))  returns 0x0800333C (0000ms, 0654ms total)
TF700 001:907 JLINK_ReadReg(XPSR)  returns 0x61000000 (0000ms, 0654ms total)
TF700 001:907 JLINK_ClrBPEx(BPHandle = 0x00000001)  returns 0x00 (0000ms, 0654ms total)
TF700 001:907 JLINK_ClrBPEx(BPHandle = 0x00000002)  returns 0x00 (0000ms, 0654ms total)
TF700 001:907 JLINK_ClrBPEx(BPHandle = 0x00000003)  returns 0x00 (0000ms, 0654ms total)
TF700 001:907 JLINK_ClrBPEx(BPHandle = 0x00000004)  returns 0x00 (0000ms, 0654ms total)
TF700 001:907 JLINK_ReadMemU32(0xE000ED30, 0x0001 Items, ...) -- CPU_ReadMem(4 bytes @ 0xE000ED30) - Data: 03 00 00 00  returns 0x01 (0001ms, 0655ms total)
TF700 001:908 JLINK_ReadMemU32(0xE0001028, 0x0001 Items, ...) -- CPU_ReadMem(4 bytes @ 0xE0001028) - Data: 00 00 00 00  returns 0x01 (0000ms, 0655ms total)
TF700 001:908 JLINK_ReadMemU32(0xE0001038, 0x0001 Items, ...) -- CPU_ReadMem(4 bytes @ 0xE0001038) - Data: 00 02 00 00  returns 0x01 (0001ms, 0656ms total)
TF700 001:909 JLINK_ReadMemU32(0xE0001048, 0x0001 Items, ...) -- CPU_ReadMem(4 bytes @ 0xE0001048) - Data: 00 00 00 00  returns 0x01 (0001ms, 0657ms total)
TF700 001:910 JLINK_ReadMemU32(0xE0001058, 0x0001 Items, ...) -- CPU_ReadMem(4 bytes @ 0xE0001058) - Data: 00 00 00 00  returns 0x01 (0000ms, 0657ms total)
TF700 001:910 JLINK_ReadReg(R0)  returns 0x0800333D (0000ms, 0657ms total)
TF700 001:910 JLINK_ReadReg(R1)  returns 0x20000580 (0000ms, 0657ms total)
TF700 001:910 JLINK_ReadReg(R2)  returns 0x00000000 (0000ms, 0657ms total)
TF700 001:910 JLINK_ReadReg(R3)  returns 0x080030B5 (0000ms, 0657ms total)
TF700 001:910 JLINK_ReadReg(R4)  returns 0x0800339C (0000ms, 0657ms total)
TF700 001:910 JLINK_ReadReg(R5)  returns 0x0800339C (0000ms, 0657ms total)
TF700 001:910 JLINK_ReadReg(R6)  returns 0x00000000 (0000ms, 0657ms total)
TF700 001:910 JLINK_ReadReg(R7)  returns 0x00000000 (0000ms, 0657ms total)
TF700 001:911 JLINK_ReadReg(R8)  returns 0x00000000 (0000ms, 0658ms total)
TF700 001:911 JLINK_ReadReg(R9)  returns 0x00000000 (0000ms, 0658ms total)
TF700 001:911 JLINK_ReadReg(R10)  returns 0x00000000 (0000ms, 0658ms total)
TF700 001:911 JLINK_ReadReg(R11)  returns 0x00000000 (0000ms, 0658ms total)
TF700 001:911 JLINK_ReadReg(R12)  returns 0x00000000 (0000ms, 0658ms total)
TF700 001:911 JLINK_ReadReg(R13 (SP))  returns 0x20000580 (0000ms, 0658ms total)
TF700 001:911 JLINK_ReadReg(R14)  returns 0x0800022D (0000ms, 0658ms total)
TF700 001:911 JLINK_ReadReg(R15 (PC))  returns 0x0800333C (0000ms, 0658ms total)
TF700 001:911 JLINK_ReadReg(XPSR)  returns 0x61000000 (0000ms, 0658ms total)
TF700 001:911 JLINK_ReadReg(MSP)  returns 0x20000580 (0000ms, 0658ms total)
TF700 001:911 JLINK_ReadReg(PSP)  returns 0x00000000 (0000ms, 0658ms total)
TF700 001:911 JLINK_ReadReg(CFBP)  returns 0x00000000 (0000ms, 0658ms total)
TF700 001:911 JLINK_ReadReg(FPSCR)  returns 0x00000000 (0004ms, 0662ms total)
TF700 001:915 JLINK_ReadReg(FPS0)  returns 0x00000000 (0000ms, 0662ms total)
TF700 001:915 JLINK_ReadReg(FPS1)  returns 0x00000000 (0000ms, 0662ms total)
TF700 001:915 JLINK_ReadReg(FPS2)  returns 0x00000000 (0000ms, 0662ms total)
TF700 001:915 JLINK_ReadReg(FPS3)  returns 0x00000000 (0000ms, 0662ms total)
TF700 001:915 JLINK_ReadReg(FPS4)  returns 0x00000000 (0000ms, 0662ms total)
TF700 001:915 JLINK_ReadReg(FPS5)  returns 0x00000000 (0000ms, 0662ms total)
TF700 001:915 JLINK_ReadReg(FPS6)  returns 0x00000000 (0000ms, 0662ms total)
TF700 001:915 JLINK_ReadReg(FPS7)  returns 0x00000000 (0000ms, 0662ms total)
TF700 001:915 JLINK_ReadReg(FPS8)  returns 0x00000000 (0000ms, 0662ms total)
TF700 001:915 JLINK_ReadReg(FPS9)  returns 0x00000000 (0000ms, 0662ms total)
TF700 001:915 JLINK_ReadReg(FPS10)  returns 0x00000000 (0000ms, 0662ms total)
TF700 001:915 JLINK_ReadReg(FPS11)  returns 0x00000000 (0000ms, 0662ms total)
TF700 001:915 JLINK_ReadReg(FPS12)  returns 0x00000000 (0000ms, 0662ms total)
TF700 001:915 JLINK_ReadReg(FPS13)  returns 0x00000000 (0000ms, 0662ms total)
TF700 001:915 JLINK_ReadReg(FPS14)  returns 0x00000000 (0000ms, 0662ms total)
TF700 001:916 JLINK_ReadReg(FPS15)  returns 0x00000000 (0000ms, 0662ms total)
TF700 001:916 JLINK_ReadReg(FPS16)  returns 0x00000000 (0000ms, 0662ms total)
TF700 001:916 JLINK_ReadReg(FPS17)  returns 0x00000000 (0000ms, 0662ms total)
TF700 001:916 JLINK_ReadReg(FPS18)  returns 0x00000000 (0000ms, 0662ms total)
TF700 001:916 JLINK_ReadReg(FPS19)  returns 0x00000000 (0000ms, 0662ms total)
TF700 001:916 JLINK_ReadReg(FPS20)  returns 0x00000000 (0000ms, 0662ms total)
TF700 001:916 JLINK_ReadReg(FPS21)  returns 0x00000000 (0000ms, 0662ms total)
TF700 001:916 JLINK_ReadReg(FPS22)  returns 0x00000000 (0000ms, 0662ms total)
TF700 001:916 JLINK_ReadReg(FPS23)  returns 0x00000000 (0000ms, 0662ms total)
TF700 001:916 JLINK_ReadReg(FPS24)  returns 0x00000000 (0000ms, 0662ms total)
TF700 001:916 JLINK_ReadReg(FPS25)  returns 0x00000000 (0000ms, 0662ms total)
TF700 001:916 JLINK_ReadReg(FPS26)  returns 0x00000000 (0000ms, 0662ms total)
TF700 001:916 JLINK_ReadReg(FPS27)  returns 0x00000000 (0000ms, 0662ms total)
TF700 001:916 JLINK_ReadReg(FPS28)  returns 0x00000000 (0000ms, 0662ms total)
TF700 001:916 JLINK_ReadReg(FPS29)  returns 0x00000000 (0000ms, 0662ms total)
TF700 001:916 JLINK_ReadReg(FPS30)  returns 0x00000000 (0000ms, 0662ms total)
TF700 001:916 JLINK_ReadReg(FPS31)  returns 0x00000000 (0000ms, 0662ms total)
TE8A8 001:919 JLINK_ReadMemU32(0xE0001004, 0x0001 Items, ...) -- CPU_ReadMem(4 bytes @ 0xE0001004) - Data: E2 08 00 00  returns 0x01 (0001ms, 0663ms total)
TE8A8 001:920 JLINK_ReadMem (0x00000000, 0x0001 Bytes, ...) -- CPU_ReadMem(4 bytes @ 0x00000004) -- CPU_ReadMem(64 bytes @ 0x08000000) -- Updating C cache (64 bytes @ 0x08000000) -- Read from C cache (1 bytes @ 0x08000000) - Data: 80  returns 0x00 (0001ms, 0664ms total)
TE8A8 001:923 JLINK_ReadMem (0x0800323C, 0x003C Bytes, ...) -- CPU_ReadMem(128 bytes @ 0x08003200) -- Updating C cache (128 bytes @ 0x08003200) -- Read from C cache (60 bytes @ 0x0800323C) - Data: 64 1C 76 1C 08 98 84 42 F5 DB 04 E0 30 20 52 46 ...  returns 0x00 (0001ms, 0665ms total)
TE8A8 001:924 JLINK_ReadMem (0x08003278, 0x003C Bytes, ...) -- CPU_ReadMem(64 bytes @ 0x08003280) -- Updating C cache (64 bytes @ 0x08003280) -- Read from C cache (60 bytes @ 0x08003278) - Data: 09 28 01 00 05 E0 03 A0 FF F7 00 FF FA 20 FD F7 ...  returns 0x00 (0002ms, 0667ms total)
TE8A8 001:926 JLINK_ReadMem (0x080032B4, 0x003C Bytes, ...) -- CPU_ReadMem(64 bytes @ 0x080032C0) -- Updating C cache (64 bytes @ 0x080032C0) -- Read from C cache (60 bytes @ 0x080032B4) - Data: A0 F1 01 02 90 B2 FA D1 00 BF 01 00 A0 F1 01 02 ...  returns 0x00 (0001ms, 0668ms total)
TE8A8 001:927 JLINK_ReadMem (0x080032F0, 0x003C Bytes, ...) -- CPU_ReadMem(64 bytes @ 0x08003300) -- Updating C cache (64 bytes @ 0x08003300) -- Read from C cache (60 bytes @ 0x080032F0) - Data: A0 F1 01 02 90 B2 FA D1 00 BF 01 00 A0 F1 01 02 ...  returns 0x00 (0001ms, 0669ms total)
TE8A8 001:928 JLINK_ReadMem (0x0800332C, 0x003C Bytes, ...) -- CPU_ReadMem(64 bytes @ 0x08003340) -- Updating C cache (64 bytes @ 0x08003340) -- Read from C cache (60 bytes @ 0x0800332C) - Data: 02 48 FE F7 AA FD 00 98 1C BD 00 00 2C 00 00 20 ...  returns 0x00 (0001ms, 0670ms total)
TF700 003:402 JLINK_SetBPEx(Addr = 0x0800335A, Type = 0xFFFFFFF2)  returns 0x00000005 (0001ms, 0671ms total)
TF700 003:403 JLINK_SetBPEx(Addr = 0x08003356, Type = 0xFFFFFFF2)  returns 0x00000006 (0000ms, 0671ms total)
TF700 003:403 JLINK_SetBPEx(Addr = 0x080002E6, Type = 0xFFFFFFF2)  returns 0x00000007 (0000ms, 0671ms total)
TF700 003:403 JLINK_Go() -- CPU_WriteMem(4 bytes @ 0xE0002000) -- CPU_WriteMem(4 bytes @ 0xE0002000) -- CPU_WriteMem(4 bytes @ 0xE0002000) -- CPU_WriteMem(4 bytes @ 0xE0002008) -- CPU_WriteMem(4 bytes @ 0xE000200C) -- CPU_WriteMem(4 bytes @ 0xE0002010) -- CPU_WriteMem(4 bytes @ 0xE0002014) (0004ms, 0675ms total)
TF700 003:507 JLINK_IsHalted()  returns TRUE (0003ms, 0678ms total)
TF700 003:510 JLINK_Halt()  returns 0x00 (0000ms, 0675ms total)
TF700 003:510 JLINK_IsHalted()  returns TRUE (0000ms, 0675ms total)
TF700 003:510 JLINK_IsHalted()  returns TRUE (0000ms, 0675ms total)
TF700 003:510 JLINK_IsHalted()  returns TRUE (0000ms, 0675ms total)
TF700 003:510 JLINK_ReadReg(R15 (PC))  returns 0x08003356 (0000ms, 0675ms total)
TF700 003:510 JLINK_ReadReg(XPSR)  returns 0x01000000 (0000ms, 0675ms total)
TF700 003:510 JLINK_ClrBPEx(BPHandle = 0x00000005)  returns 0x00 (0000ms, 0675ms total)
TF700 003:510 JLINK_ClrBPEx(BPHandle = 0x00000006)  returns 0x00 (0001ms, 0676ms total)
TF700 003:511 JLINK_ClrBPEx(BPHandle = 0x00000007)  returns 0x00 (0000ms, 0676ms total)
TF700 003:511 JLINK_ReadMemU32(0xE000ED30, 0x0001 Items, ...) -- CPU_ReadMem(4 bytes @ 0xE000ED30) - Data: 03 00 00 00  returns 0x01 (0000ms, 0676ms total)
TF700 003:511 JLINK_ReadMemU32(0xE0001028, 0x0001 Items, ...) -- CPU_ReadMem(4 bytes @ 0xE0001028) - Data: 00 00 00 00  returns 0x01 (0001ms, 0677ms total)
TF700 003:512 JLINK_ReadMemU32(0xE0001038, 0x0001 Items, ...) -- CPU_ReadMem(4 bytes @ 0xE0001038) - Data: 00 02 00 00  returns 0x01 (0001ms, 0678ms total)
TF700 003:513 JLINK_ReadMemU32(0xE0001048, 0x0001 Items, ...) -- CPU_ReadMem(4 bytes @ 0xE0001048) - Data: 00 00 00 00  returns 0x01 (0000ms, 0678ms total)
TF700 003:513 JLINK_ReadMemU32(0xE0001058, 0x0001 Items, ...) -- CPU_ReadMem(4 bytes @ 0xE0001058) - Data: 00 00 00 00  returns 0x01 (0001ms, 0679ms total)
TF700 003:514 JLINK_ReadReg(R0)  returns 0x00000032 (0000ms, 0679ms total)
TF700 003:514 JLINK_ReadReg(R1)  returns 0x00040000 (0000ms, 0679ms total)
TF700 003:514 JLINK_ReadReg(R2)  returns 0xE000E004 (0000ms, 0679ms total)
TF700 003:514 JLINK_ReadReg(R3)  returns 0x00000050 (0000ms, 0679ms total)
TF700 003:514 JLINK_ReadReg(R4)  returns 0x0800339C (0000ms, 0679ms total)
TF700 003:514 JLINK_ReadReg(R5)  returns 0x0800339C (0000ms, 0679ms total)
TF700 003:514 JLINK_ReadReg(R6)  returns 0x00000000 (0000ms, 0679ms total)
TF700 003:514 JLINK_ReadReg(R7)  returns 0x00000000 (0000ms, 0679ms total)
TF700 003:514 JLINK_ReadReg(R8)  returns 0x00000000 (0000ms, 0679ms total)
TF700 003:514 JLINK_ReadReg(R9)  returns 0x00000000 (0000ms, 0679ms total)
TF700 003:514 JLINK_ReadReg(R10)  returns 0x00000000 (0000ms, 0679ms total)
TF700 003:514 JLINK_ReadReg(R11)  returns 0x00000000 (0001ms, 0680ms total)
TF700 003:515 JLINK_ReadReg(R12)  returns 0x00000000 (0000ms, 0680ms total)
TF700 003:515 JLINK_ReadReg(R13 (SP))  returns 0x20000580 (0000ms, 0680ms total)
TF700 003:515 JLINK_ReadReg(R14)  returns 0x08002833 (0000ms, 0680ms total)
TF700 003:515 JLINK_ReadReg(R15 (PC))  returns 0x08003356 (0000ms, 0680ms total)
TF700 003:515 JLINK_ReadReg(XPSR)  returns 0x01000000 (0000ms, 0680ms total)
TF700 003:515 JLINK_ReadReg(MSP)  returns 0x20000580 (0000ms, 0680ms total)
TF700 003:515 JLINK_ReadReg(PSP)  returns 0x00000000 (0000ms, 0680ms total)
TF700 003:515 JLINK_ReadReg(CFBP)  returns 0x00000000 (0000ms, 0680ms total)
TF700 003:515 JLINK_ReadReg(FPSCR)  returns 0x00000000 (0004ms, 0684ms total)
TF700 003:519 JLINK_ReadReg(FPS0)  returns 0x00000000 (0000ms, 0684ms total)
TF700 003:519 JLINK_ReadReg(FPS1)  returns 0x00000000 (0000ms, 0684ms total)
TF700 003:519 JLINK_ReadReg(FPS2)  returns 0x00000000 (0001ms, 0685ms total)
TF700 003:520 JLINK_ReadReg(FPS3)  returns 0x00000000 (0000ms, 0685ms total)
TF700 003:520 JLINK_ReadReg(FPS4)  returns 0x00000000 (0000ms, 0685ms total)
TF700 003:520 JLINK_ReadReg(FPS5)  returns 0x00000000 (0000ms, 0685ms total)
TF700 003:520 JLINK_ReadReg(FPS6)  returns 0x00000000 (0000ms, 0685ms total)
TF700 003:520 JLINK_ReadReg(FPS7)  returns 0x00000000 (0000ms, 0685ms total)
TF700 003:520 JLINK_ReadReg(FPS8)  returns 0x00000000 (0000ms, 0685ms total)
TF700 003:520 JLINK_ReadReg(FPS9)  returns 0x00000000 (0000ms, 0685ms total)
TF700 003:520 JLINK_ReadReg(FPS10)  returns 0x00000000 (0000ms, 0685ms total)
TF700 003:520 JLINK_ReadReg(FPS11)  returns 0x00000000 (0000ms, 0685ms total)
TF700 003:520 JLINK_ReadReg(FPS12)  returns 0x00000000 (0000ms, 0685ms total)
TF700 003:520 JLINK_ReadReg(FPS13)  returns 0x00000000 (0000ms, 0685ms total)
TF700 003:520 JLINK_ReadReg(FPS14)  returns 0x00000000 (0000ms, 0685ms total)
TF700 003:520 JLINK_ReadReg(FPS15)  returns 0x00000000 (0000ms, 0685ms total)
TF700 003:520 JLINK_ReadReg(FPS16)  returns 0x00000000 (0000ms, 0685ms total)
TF700 003:520 JLINK_ReadReg(FPS17)  returns 0x00000000 (0000ms, 0685ms total)
TF700 003:520 JLINK_ReadReg(FPS18)  returns 0x00000000 (0000ms, 0685ms total)
TF700 003:520 JLINK_ReadReg(FPS19)  returns 0x00000000 (0000ms, 0685ms total)
TF700 003:520 JLINK_ReadReg(FPS20)  returns 0x00000000 (0000ms, 0685ms total)
TF700 003:520 JLINK_ReadReg(FPS21)  returns 0x00000000 (0000ms, 0685ms total)
TF700 003:520 JLINK_ReadReg(FPS22)  returns 0x00000000 (0001ms, 0686ms total)
TF700 003:521 JLINK_ReadReg(FPS23)  returns 0x00000000 (0000ms, 0686ms total)
TF700 003:521 JLINK_ReadReg(FPS24)  returns 0x00000000 (0000ms, 0686ms total)
TF700 003:521 JLINK_ReadReg(FPS25)  returns 0x00000000 (0000ms, 0686ms total)
TF700 003:521 JLINK_ReadReg(FPS26)  returns 0x00000000 (0000ms, 0686ms total)
TF700 003:521 JLINK_ReadReg(FPS27)  returns 0x00000000 (0000ms, 0686ms total)
TF700 003:521 JLINK_ReadReg(FPS28)  returns 0x00000000 (0000ms, 0686ms total)
TF700 003:521 JLINK_ReadReg(FPS29)  returns 0x00000000 (0000ms, 0686ms total)
TF700 003:521 JLINK_ReadReg(FPS30)  returns 0x00000000 (0000ms, 0686ms total)
TF700 003:521 JLINK_ReadReg(FPS31)  returns 0x00000000 (0000ms, 0686ms total)
TE8A8 003:525 JLINK_ReadMemU32(0xE0001004, 0x0001 Items, ...) -- CPU_ReadMem(4 bytes @ 0xE0001004) - Data: 02 12 25 00  returns 0x01 (0001ms, 0687ms total)
TE8A8 003:526 JLINK_ReadMem (0x00000000, 0x0001 Bytes, ...) -- CPU_ReadMem(4 bytes @ 0x00000004) -- CPU_ReadMem(64 bytes @ 0x08000000) -- Updating C cache (64 bytes @ 0x08000000) -- Read from C cache (1 bytes @ 0x08000000) - Data: 80  returns 0x00 (0002ms, 0689ms total)
TE8A8 003:531 JLINK_ReadMem (0x08003352, 0x0002 Bytes, ...) -- CPU_ReadMem(64 bytes @ 0x08003340) -- Updating C cache (64 bytes @ 0x08003340) -- Read from C cache (2 bytes @ 0x08003352) - Data: FF F7  returns 0x00 (0001ms, 0690ms total)
TE8A8 003:532 JLINK_ReadMem (0x08003354, 0x003C Bytes, ...) -- CPU_ReadMem(64 bytes @ 0x08003380) -- Updating C cache (64 bytes @ 0x08003380) -- Read from C cache (60 bytes @ 0x08003354) - Data: 4B FA FF F7 B9 F8 FE F7 6B FE 03 E0 40 F2 DC 50 ...  returns 0x00 (0002ms, 0692ms total)
TF700 005:682 JLINK_Step() -- Read from C cache (2 bytes @ 0x08003356) -- Read from C cache (2 bytes @ 0x08003358) -- Simulated  returns 0x00 (0001ms, 0693ms total)
TF700 005:683 JLINK_ReadReg(R15 (PC))  returns 0x080024CC (0000ms, 0693ms total)
TF700 005:683 JLINK_ReadReg(XPSR)  returns 0x01000000 (0000ms, 0693ms total)
TF700 005:684 JLINK_ReadReg(R0)  returns 0x00000032 (0000ms, 0694ms total)
TF700 005:684 JLINK_ReadReg(R1)  returns 0x00040000 (0000ms, 0694ms total)
TF700 005:684 JLINK_ReadReg(R2)  returns 0xE000E004 (0000ms, 0694ms total)
TF700 005:684 JLINK_ReadReg(R3)  returns 0x00000050 (0000ms, 0694ms total)
TF700 005:684 JLINK_ReadReg(R4)  returns 0x0800339C (0000ms, 0694ms total)
TF700 005:684 JLINK_ReadReg(R5)  returns 0x0800339C (0000ms, 0694ms total)
TF700 005:684 JLINK_ReadReg(R6)  returns 0x00000000 (0000ms, 0694ms total)
TF700 005:684 JLINK_ReadReg(R7)  returns 0x00000000 (0000ms, 0694ms total)
TF700 005:684 JLINK_ReadReg(R8)  returns 0x00000000 (0000ms, 0694ms total)
TF700 005:684 JLINK_ReadReg(R9)  returns 0x00000000 (0000ms, 0694ms total)
TF700 005:684 JLINK_ReadReg(R10)  returns 0x00000000 (0000ms, 0694ms total)
TF700 005:684 JLINK_ReadReg(R11)  returns 0x00000000 (0000ms, 0694ms total)
TF700 005:684 JLINK_ReadReg(R12)  returns 0x00000000 (0000ms, 0694ms total)
TF700 005:684 JLINK_ReadReg(R13 (SP))  returns 0x20000580 (0000ms, 0694ms total)
TF700 005:684 JLINK_ReadReg(R14)  returns 0x0800335B (0001ms, 0695ms total)
TF700 005:685 JLINK_ReadReg(R15 (PC))  returns 0x080024CC (0000ms, 0695ms total)
TF700 005:685 JLINK_ReadReg(XPSR)  returns 0x01000000 (0000ms, 0695ms total)
TF700 005:685 JLINK_ReadReg(MSP)  returns 0x20000580 (0000ms, 0695ms total)
TF700 005:685 JLINK_ReadReg(PSP)  returns 0x00000000 (0000ms, 0695ms total)
TF700 005:685 JLINK_ReadReg(CFBP)  returns 0x00000000 (0000ms, 0695ms total)
TF700 005:685 JLINK_ReadReg(FPSCR)  returns 0x00000000 (0000ms, 0695ms total)
TF700 005:685 JLINK_ReadReg(FPS0)  returns 0x00000000 (0000ms, 0695ms total)
TF700 005:685 JLINK_ReadReg(FPS1)  returns 0x00000000 (0000ms, 0695ms total)
TF700 005:685 JLINK_ReadReg(FPS2)  returns 0x00000000 (0000ms, 0695ms total)
TF700 005:685 JLINK_ReadReg(FPS3)  returns 0x00000000 (0000ms, 0695ms total)
TF700 005:685 JLINK_ReadReg(FPS4)  returns 0x00000000 (0000ms, 0695ms total)
TF700 005:685 JLINK_ReadReg(FPS5)  returns 0x00000000 (0000ms, 0695ms total)
TF700 005:685 JLINK_ReadReg(FPS6)  returns 0x00000000 (0000ms, 0695ms total)
TF700 005:685 JLINK_ReadReg(FPS7)  returns 0x00000000 (0000ms, 0695ms total)
TF700 005:685 JLINK_ReadReg(FPS8)  returns 0x00000000 (0000ms, 0695ms total)
TF700 005:685 JLINK_ReadReg(FPS9)  returns 0x00000000 (0001ms, 0696ms total)
TF700 005:686 JLINK_ReadReg(FPS10)  returns 0x00000000 (0000ms, 0696ms total)
TF700 005:686 JLINK_ReadReg(FPS11)  returns 0x00000000 (0000ms, 0696ms total)
TF700 005:686 JLINK_ReadReg(FPS12)  returns 0x00000000 (0000ms, 0696ms total)
TF700 005:686 JLINK_ReadReg(FPS13)  returns 0x00000000 (0000ms, 0696ms total)
TF700 005:686 JLINK_ReadReg(FPS14)  returns 0x00000000 (0000ms, 0696ms total)
TF700 005:686 JLINK_ReadReg(FPS15)  returns 0x00000000 (0000ms, 0696ms total)
TF700 005:686 JLINK_ReadReg(FPS16)  returns 0x00000000 (0000ms, 0696ms total)
TF700 005:686 JLINK_ReadReg(FPS17)  returns 0x00000000 (0000ms, 0696ms total)
TF700 005:686 JLINK_ReadReg(FPS18)  returns 0x00000000 (0000ms, 0696ms total)
TF700 005:686 JLINK_ReadReg(FPS19)  returns 0x00000000 (0000ms, 0696ms total)
TF700 005:686 JLINK_ReadReg(FPS20)  returns 0x00000000 (0000ms, 0696ms total)
TF700 005:686 JLINK_ReadReg(FPS21)  returns 0x00000000 (0000ms, 0696ms total)
TF700 005:686 JLINK_ReadReg(FPS22)  returns 0x00000000 (0000ms, 0696ms total)
TF700 005:686 JLINK_ReadReg(FPS23)  returns 0x00000000 (0000ms, 0696ms total)
TF700 005:686 JLINK_ReadReg(FPS24)  returns 0x00000000 (0000ms, 0696ms total)
TF700 005:686 JLINK_ReadReg(FPS25)  returns 0x00000000 (0000ms, 0696ms total)
TF700 005:687 JLINK_ReadReg(FPS26)  returns 0x00000000 (0000ms, 0697ms total)
TF700 005:687 JLINK_ReadReg(FPS27)  returns 0x00000000 (0000ms, 0697ms total)
TF700 005:687 JLINK_ReadReg(FPS28)  returns 0x00000000 (0000ms, 0697ms total)
TF700 005:687 JLINK_ReadReg(FPS29)  returns 0x00000000 (0001ms, 0698ms total)
TF700 005:688 JLINK_ReadReg(FPS30)  returns 0x00000000 (0000ms, 0698ms total)
TF700 005:688 JLINK_ReadReg(FPS31)  returns 0x00000000 (0000ms, 0698ms total)
TE8A8 005:698 JLINK_ReadMemU32(0xE0001004, 0x0001 Items, ...) - Data: 02 12 25 00  returns 0x01 (0000ms, 0698ms total)
TE8A8 005:698 JLINK_ReadMem (0x00000000, 0x0001 Bytes, ...) -- Read from C cache (1 bytes @ 0x08000000) - Data: 80  returns 0x00 (0000ms, 0698ms total)
TE8A8 005:700 JLINK_ReadMem (0x080024CA, 0x0002 Bytes, ...) -- CPU_ReadMem(64 bytes @ 0x080024C0) -- Updating C cache (64 bytes @ 0x080024C0) -- Read from C cache (2 bytes @ 0x080024CA) - Data: 10 BD  returns 0x00 (0001ms, 0699ms total)
TE8A8 005:701 JLINK_ReadMem (0x080024CC, 0x003C Bytes, ...) -- CPU_ReadMem(64 bytes @ 0x08002500) -- Updating C cache (64 bytes @ 0x08002500) -- Read from C cache (60 bytes @ 0x080024CC) - Data: 00 B5 85 B0 31 48 00 68 40 F0 01 00 2F 49 08 60 ...  returns 0x00 (0001ms, 0700ms total)
TF700 007:696 JLINK_Step() -- Read from C cache (2 bytes @ 0x080024CC) -- CPU_WriteMem(4 bytes @ 0x2000057C) -- Simulated  returns 0x00 (0002ms, 0702ms total)
TF700 007:698 JLINK_ReadReg(R15 (PC))  returns 0x080024CE (0000ms, 0702ms total)
TF700 007:698 JLINK_ReadReg(XPSR)  returns 0x01000000 (0000ms, 0702ms total)
TF700 007:698 JLINK_Step() -- Read from C cache (2 bytes @ 0x080024CE) -- Simulated  returns 0x00 (0000ms, 0702ms total)
TF700 007:698 JLINK_ReadReg(R15 (PC))  returns 0x080024D0 (0000ms, 0702ms total)
TF700 007:698 JLINK_ReadReg(XPSR)  returns 0x01000000 (0001ms, 0703ms total)
TF700 007:699 JLINK_ReadReg(R0)  returns 0x00000032 (0000ms, 0703ms total)
TF700 007:699 JLINK_ReadReg(R1)  returns 0x00040000 (0000ms, 0703ms total)
TF700 007:699 JLINK_ReadReg(R2)  returns 0xE000E004 (0000ms, 0703ms total)
TF700 007:699 JLINK_ReadReg(R3)  returns 0x00000050 (0000ms, 0703ms total)
TF700 007:699 JLINK_ReadReg(R4)  returns 0x0800339C (0000ms, 0703ms total)
TF700 007:699 JLINK_ReadReg(R5)  returns 0x0800339C (0000ms, 0703ms total)
TF700 007:699 JLINK_ReadReg(R6)  returns 0x00000000 (0000ms, 0703ms total)
TF700 007:699 JLINK_ReadReg(R7)  returns 0x00000000 (0000ms, 0703ms total)
TF700 007:699 JLINK_ReadReg(R8)  returns 0x00000000 (0000ms, 0703ms total)
TF700 007:699 JLINK_ReadReg(R9)  returns 0x00000000 (0000ms, 0703ms total)
TF700 007:699 JLINK_ReadReg(R10)  returns 0x00000000 (0000ms, 0703ms total)
TF700 007:699 JLINK_ReadReg(R11)  returns 0x00000000 (0000ms, 0703ms total)
TF700 007:699 JLINK_ReadReg(R12)  returns 0x00000000 (0000ms, 0703ms total)
TF700 007:699 JLINK_ReadReg(R13 (SP))  returns 0x20000568 (0000ms, 0703ms total)
TF700 007:699 JLINK_ReadReg(R14)  returns 0x0800335B (0000ms, 0703ms total)
TF700 007:700 JLINK_ReadReg(R15 (PC))  returns 0x080024D0 (0000ms, 0704ms total)
TF700 007:700 JLINK_ReadReg(XPSR)  returns 0x01000000 (0000ms, 0704ms total)
TF700 007:700 JLINK_ReadReg(MSP)  returns 0x20000568 (0000ms, 0704ms total)
TF700 007:700 JLINK_ReadReg(PSP)  returns 0x00000000 (0000ms, 0704ms total)
TF700 007:700 JLINK_ReadReg(CFBP)  returns 0x00000000 (0000ms, 0704ms total)
TF700 007:700 JLINK_ReadReg(FPSCR)  returns 0x00000000 (0000ms, 0704ms total)
TF700 007:700 JLINK_ReadReg(FPS0)  returns 0x00000000 (0000ms, 0704ms total)
TF700 007:700 JLINK_ReadReg(FPS1)  returns 0x00000000 (0000ms, 0704ms total)
TF700 007:700 JLINK_ReadReg(FPS2)  returns 0x00000000 (0000ms, 0704ms total)
TF700 007:700 JLINK_ReadReg(FPS3)  returns 0x00000000 (0000ms, 0704ms total)
TF700 007:700 JLINK_ReadReg(FPS4)  returns 0x00000000 (0000ms, 0704ms total)
TF700 007:700 JLINK_ReadReg(FPS5)  returns 0x00000000 (0000ms, 0704ms total)
TF700 007:700 JLINK_ReadReg(FPS6)  returns 0x00000000 (0000ms, 0704ms total)
TF700 007:700 JLINK_ReadReg(FPS7)  returns 0x00000000 (0000ms, 0704ms total)
TF700 007:700 JLINK_ReadReg(FPS8)  returns 0x00000000 (0000ms, 0704ms total)
TF700 007:700 JLINK_ReadReg(FPS9)  returns 0x00000000 (0000ms, 0704ms total)
TF700 007:700 JLINK_ReadReg(FPS10)  returns 0x00000000 (0000ms, 0704ms total)
TF700 007:700 JLINK_ReadReg(FPS11)  returns 0x00000000 (0000ms, 0704ms total)
TF700 007:700 JLINK_ReadReg(FPS12)  returns 0x00000000 (0001ms, 0705ms total)
TF700 007:701 JLINK_ReadReg(FPS13)  returns 0x00000000 (0000ms, 0705ms total)
TF700 007:701 JLINK_ReadReg(FPS14)  returns 0x00000000 (0000ms, 0705ms total)
TF700 007:701 JLINK_ReadReg(FPS15)  returns 0x00000000 (0000ms, 0705ms total)
TF700 007:701 JLINK_ReadReg(FPS16)  returns 0x00000000 (0000ms, 0705ms total)
TF700 007:701 JLINK_ReadReg(FPS17)  returns 0x00000000 (0000ms, 0705ms total)
TF700 007:701 JLINK_ReadReg(FPS18)  returns 0x00000000 (0000ms, 0705ms total)
TF700 007:701 JLINK_ReadReg(FPS19)  returns 0x00000000 (0000ms, 0705ms total)
TF700 007:701 JLINK_ReadReg(FPS20)  returns 0x00000000 (0000ms, 0705ms total)
TF700 007:701 JLINK_ReadReg(FPS21)  returns 0x00000000 (0000ms, 0705ms total)
TF700 007:701 JLINK_ReadReg(FPS22)  returns 0x00000000 (0000ms, 0705ms total)
TF700 007:701 JLINK_ReadReg(FPS23)  returns 0x00000000 (0000ms, 0705ms total)
TF700 007:701 JLINK_ReadReg(FPS24)  returns 0x00000000 (0000ms, 0705ms total)
TF700 007:701 JLINK_ReadReg(FPS25)  returns 0x00000000 (0000ms, 0705ms total)
TF700 007:701 JLINK_ReadReg(FPS26)  returns 0x00000000 (0000ms, 0705ms total)
TF700 007:701 JLINK_ReadReg(FPS27)  returns 0x00000000 (0000ms, 0705ms total)
TF700 007:701 JLINK_ReadReg(FPS28)  returns 0x00000000 (0001ms, 0706ms total)
TF700 007:702 JLINK_ReadReg(FPS29)  returns 0x00000000 (0000ms, 0706ms total)
TF700 007:702 JLINK_ReadReg(FPS30)  returns 0x00000000 (0000ms, 0706ms total)
TF700 007:702 JLINK_ReadReg(FPS31)  returns 0x00000000 (0000ms, 0706ms total)
TE8A8 007:702 JLINK_ReadMem (0x2000057C, 0x0004 Bytes, ...) -- CPU_ReadMem(64 bytes @ 0x20000540) -- Updating C cache (64 bytes @ 0x20000540) -- Read from C cache (4 bytes @ 0x2000057C) - Data: 5B 33 00 08  returns 0x00 (0001ms, 0707ms total)
TE8A8 007:703 JLINK_ReadMemU32(0xE0001004, 0x0001 Items, ...) - Data: 02 12 25 00  returns 0x01 (0000ms, 0707ms total)
TE8A8 007:704 JLINK_ReadMem (0x00000000, 0x0001 Bytes, ...) -- CPU_ReadMem(4 bytes @ 0x00000004) -- Read from C cache (1 bytes @ 0x08000000) - Data: 80  returns 0x00 (0000ms, 0707ms total)
TE8A8 007:709 JLINK_ReadMem (0x080024D0, 0x003C Bytes, ...) -- Read from C cache (60 bytes @ 0x080024D0) - Data: 31 48 00 68 40 F0 01 00 2F 49 08 60 2E 48 14 30 ...  returns 0x00 (0000ms, 0707ms total)
TF700 008:688 JLINK_Step() -- Read from C cache (2 bytes @ 0x080024D0) -- CPU_ReadMem(64 bytes @ 0x08002580) -- Updating C cache (64 bytes @ 0x08002580) -- Read from C cache (4 bytes @ 0x08002598) -- Simulated  returns 0x00 (0002ms, 0709ms total)
TF700 008:690 JLINK_ReadReg(R15 (PC))  returns 0x080024D2 (0000ms, 0709ms total)
TF700 008:690 JLINK_ReadReg(XPSR)  returns 0x01000000 (0000ms, 0709ms total)
TF700 008:690 JLINK_Step() -- Read from C cache (2 bytes @ 0x080024D2) -- Not simulated -- CPU_WriteMem(4 bytes @ 0xE0002008) -- CPU_WriteMem(4 bytes @ 0xE000200C) -- CPU_WriteMem(4 bytes @ 0xE0002010) -- CPU_WriteMem(4 bytes @ 0xE0001004)  returns 0x00 (0006ms, 0715ms total)
TF700 008:696 JLINK_ReadReg(R15 (PC))  returns 0x080024D4 (0000ms, 0715ms total)
TF700 008:696 JLINK_ReadReg(XPSR)  returns 0x01000000 (0000ms, 0715ms total)
TF700 008:696 JLINK_Step() -- CPU_ReadMem(64 bytes @ 0x080024C0) -- Updating C cache (64 bytes @ 0x080024C0) -- Read from C cache (2 bytes @ 0x080024D4) -- CPU_ReadMem(4 bytes @ 0xE0001004) -- Read from C cache (2 bytes @ 0x080024D6) -- Simulated  returns 0x00 (0002ms, 0717ms total)
TF700 008:698 JLINK_ReadReg(R15 (PC))  returns 0x080024D8 (0000ms, 0717ms total)
TF700 008:698 JLINK_ReadReg(XPSR)  returns 0x01000000 (0000ms, 0717ms total)
TF700 008:698 JLINK_Step() -- Read from C cache (2 bytes @ 0x080024D8) -- CPU_ReadMem(64 bytes @ 0x08002580) -- Updating C cache (64 bytes @ 0x08002580) -- Read from C cache (4 bytes @ 0x08002598) -- Simulated  returns 0x00 (0001ms, 0718ms total)
TF700 008:699 JLINK_ReadReg(R15 (PC))  returns 0x080024DA (0000ms, 0718ms total)
TF700 008:699 JLINK_ReadReg(XPSR)  returns 0x01000000 (0000ms, 0718ms total)
TF700 008:700 JLINK_Step() -- Read from C cache (2 bytes @ 0x080024DA) -- Not simulated -- CPU_WriteMem(4 bytes @ 0xE0001004)  returns 0x00 (0005ms, 0724ms total)
TF700 008:705 JLINK_ReadReg(R15 (PC))  returns 0x080024DC (0000ms, 0724ms total)
TF700 008:705 JLINK_ReadReg(XPSR)  returns 0x01000000 (0000ms, 0724ms total)
TF700 008:705 JLINK_ReadReg(R0)  returns 0x00100017 (0000ms, 0724ms total)
TF700 008:705 JLINK_ReadReg(R1)  returns 0x40023830 (0000ms, 0724ms total)
TF700 008:705 JLINK_ReadReg(R2)  returns 0xE000E004 (0000ms, 0724ms total)
TF700 008:705 JLINK_ReadReg(R3)  returns 0x00000050 (0000ms, 0724ms total)
TF700 008:705 JLINK_ReadReg(R4)  returns 0x0800339C (0000ms, 0724ms total)
TF700 008:705 JLINK_ReadReg(R5)  returns 0x0800339C (0000ms, 0724ms total)
TF700 008:705 JLINK_ReadReg(R6)  returns 0x00000000 (0000ms, 0724ms total)
TF700 008:705 JLINK_ReadReg(R7)  returns 0x00000000 (0000ms, 0724ms total)
TF700 008:705 JLINK_ReadReg(R8)  returns 0x00000000 (0000ms, 0724ms total)
TF700 008:705 JLINK_ReadReg(R9)  returns 0x00000000 (0000ms, 0724ms total)
TF700 008:705 JLINK_ReadReg(R10)  returns 0x00000000 (0000ms, 0724ms total)
TF700 008:705 JLINK_ReadReg(R11)  returns 0x00000000 (0000ms, 0724ms total)
TF700 008:705 JLINK_ReadReg(R12)  returns 0x00000000 (0000ms, 0724ms total)
TF700 008:705 JLINK_ReadReg(R13 (SP))  returns 0x20000568 (0000ms, 0724ms total)
TF700 008:705 JLINK_ReadReg(R14)  returns 0x0800335B (0001ms, 0725ms total)
TF700 008:706 JLINK_ReadReg(R15 (PC))  returns 0x080024DC (0000ms, 0725ms total)
TF700 008:706 JLINK_ReadReg(XPSR)  returns 0x01000000 (0000ms, 0725ms total)
TF700 008:706 JLINK_ReadReg(MSP)  returns 0x20000568 (0000ms, 0725ms total)
TF700 008:706 JLINK_ReadReg(PSP)  returns 0x00000000 (0000ms, 0725ms total)
TF700 008:706 JLINK_ReadReg(CFBP)  returns 0x00000000 (0000ms, 0725ms total)
TF700 008:706 JLINK_ReadReg(FPSCR)  returns 0x00000000 (0004ms, 0729ms total)
TF700 008:710 JLINK_ReadReg(FPS0)  returns 0x00000000 (0000ms, 0729ms total)
TF700 008:710 JLINK_ReadReg(FPS1)  returns 0x00000000 (0000ms, 0729ms total)
TF700 008:710 JLINK_ReadReg(FPS2)  returns 0x00000000 (0000ms, 0729ms total)
TF700 008:710 JLINK_ReadReg(FPS3)  returns 0x00000000 (0000ms, 0729ms total)
TF700 008:710 JLINK_ReadReg(FPS4)  returns 0x00000000 (0001ms, 0730ms total)
TF700 008:711 JLINK_ReadReg(FPS5)  returns 0x00000000 (0000ms, 0730ms total)
TF700 008:711 JLINK_ReadReg(FPS6)  returns 0x00000000 (0000ms, 0730ms total)
TF700 008:711 JLINK_ReadReg(FPS7)  returns 0x00000000 (0000ms, 0730ms total)
TF700 008:711 JLINK_ReadReg(FPS8)  returns 0x00000000 (0000ms, 0730ms total)
TF700 008:711 JLINK_ReadReg(FPS9)  returns 0x00000000 (0000ms, 0730ms total)
TF700 008:711 JLINK_ReadReg(FPS10)  returns 0x00000000 (0000ms, 0730ms total)
TF700 008:711 JLINK_ReadReg(FPS11)  returns 0x00000000 (0000ms, 0730ms total)
TF700 008:711 JLINK_ReadReg(FPS12)  returns 0x00000000 (0000ms, 0730ms total)
TF700 008:711 JLINK_ReadReg(FPS13)  returns 0x00000000 (0000ms, 0730ms total)
TF700 008:711 JLINK_ReadReg(FPS14)  returns 0x00000000 (0000ms, 0730ms total)
TF700 008:711 JLINK_ReadReg(FPS15)  returns 0x00000000 (0000ms, 0730ms total)
TF700 008:711 JLINK_ReadReg(FPS16)  returns 0x00000000 (0000ms, 0730ms total)
TF700 008:711 JLINK_ReadReg(FPS17)  returns 0x00000000 (0000ms, 0730ms total)
TF700 008:711 JLINK_ReadReg(FPS18)  returns 0x00000000 (0000ms, 0730ms total)
TF700 008:711 JLINK_ReadReg(FPS19)  returns 0x00000000 (0000ms, 0730ms total)
TF700 008:711 JLINK_ReadReg(FPS20)  returns 0x00000000 (0000ms, 0730ms total)
TF700 008:711 JLINK_ReadReg(FPS21)  returns 0x00000000 (0000ms, 0730ms total)
TF700 008:711 JLINK_ReadReg(FPS22)  returns 0x00000000 (0000ms, 0730ms total)
TF700 008:711 JLINK_ReadReg(FPS23)  returns 0x00000000 (0000ms, 0730ms total)
TF700 008:711 JLINK_ReadReg(FPS24)  returns 0x00000000 (0000ms, 0730ms total)
TF700 008:712 JLINK_ReadReg(FPS25)  returns 0x00000000 (0000ms, 0731ms total)
TF700 008:712 JLINK_ReadReg(FPS26)  returns 0x00000000 (0000ms, 0731ms total)
TF700 008:712 JLINK_ReadReg(FPS27)  returns 0x00000000 (0000ms, 0731ms total)
TF700 008:712 JLINK_ReadReg(FPS28)  returns 0x00000000 (0000ms, 0731ms total)
TF700 008:712 JLINK_ReadReg(FPS29)  returns 0x00000000 (0000ms, 0731ms total)
TF700 008:712 JLINK_ReadReg(FPS30)  returns 0x00000000 (0000ms, 0731ms total)
TF700 008:712 JLINK_ReadReg(FPS31)  returns 0x00000000 (0000ms, 0731ms total)
TE8A8 008:712 JLINK_ReadMem (0x2000057C, 0x0004 Bytes, ...) -- CPU_ReadMem(64 bytes @ 0x20000540) -- Updating C cache (64 bytes @ 0x20000540) -- Read from C cache (4 bytes @ 0x2000057C) - Data: 5B 33 00 08  returns 0x00 (0001ms, 0732ms total)
TE8A8 008:713 JLINK_ReadMemU32(0xE0001004, 0x0001 Items, ...) -- CPU_ReadMem(4 bytes @ 0xE0001004) - Data: 0F 12 25 00  returns 0x01 (0001ms, 0733ms total)
TE8A8 008:714 JLINK_ReadMem (0x00000000, 0x0001 Bytes, ...) -- CPU_ReadMem(4 bytes @ 0x00000004) -- CPU_ReadMem(64 bytes @ 0x08000000) -- Updating C cache (64 bytes @ 0x08000000) -- Read from C cache (1 bytes @ 0x08000000) - Data: 80  returns 0x00 (0002ms, 0735ms total)
TE8A8 008:723 JLINK_ReadMem (0x080024D0, 0x003C Bytes, ...) -- CPU_ReadMem(128 bytes @ 0x080024C0) -- Updating C cache (128 bytes @ 0x080024C0) -- Read from C cache (60 bytes @ 0x080024D0) - Data: 31 48 00 68 40 F0 01 00 2F 49 08 60 2E 48 14 30 ...  returns 0x00 (0002ms, 0737ms total)
TF700 009:329 JLINK_Step() -- Read from C cache (2 bytes @ 0x080024DC) -- CPU_ReadMem(64 bytes @ 0x08002580) -- Updating C cache (64 bytes @ 0x08002580) -- Read from C cache (4 bytes @ 0x08002598) -- Simulated  returns 0x00 (0003ms, 0740ms total)
TF700 009:332 JLINK_ReadReg(R15 (PC))  returns 0x080024DE (0000ms, 0740ms total)
TF700 009:332 JLINK_ReadReg(XPSR)  returns 0x01000000 (0000ms, 0740ms total)
TF700 009:332 JLINK_Step() -- Read from C cache (2 bytes @ 0x080024DE) -- Simulated  returns 0x00 (0000ms, 0740ms total)
TF700 009:332 JLINK_ReadReg(R15 (PC))  returns 0x080024E0 (0000ms, 0740ms total)
TF700 009:332 JLINK_ReadReg(XPSR)  returns 0x01000000 (0000ms, 0740ms total)
TF700 009:332 JLINK_Step() -- Read from C cache (2 bytes @ 0x080024E0) -- Not simulated -- CPU_WriteMem(4 bytes @ 0xE0001004)  returns 0x00 (0006ms, 0746ms total)
TF700 009:338 JLINK_ReadReg(R15 (PC))  returns 0x080024E2 (0000ms, 0746ms total)
TF700 009:338 JLINK_ReadReg(XPSR)  returns 0x01000000 (0000ms, 0746ms total)
TF700 009:338 JLINK_Step() -- CPU_ReadMem(64 bytes @ 0x080024C0) -- Updating C cache (64 bytes @ 0x080024C0) -- Read from C cache (2 bytes @ 0x080024E2) -- CPU_ReadMem(4 bytes @ 0xE0001004) -- Read from C cache (2 bytes @ 0x080024E4) -- Simulated  returns 0x00 (0002ms, 0748ms total)
TF700 009:340 JLINK_ReadReg(R15 (PC))  returns 0x080024E6 (0000ms, 0748ms total)
TF700 009:340 JLINK_ReadReg(XPSR)  returns 0x01000000 (0000ms, 0748ms total)
TF700 009:340 JLINK_Step() -- Read from C cache (2 bytes @ 0x080024E6) -- CPU_ReadMem(64 bytes @ 0x08002580) -- Updating C cache (64 bytes @ 0x08002580) -- Read from C cache (4 bytes @ 0x08002598) -- Simulated  returns 0x00 (0002ms, 0750ms total)
TF700 009:342 JLINK_ReadReg(R15 (PC))  returns 0x080024E8 (0000ms, 0750ms total)
TF700 009:342 JLINK_ReadReg(XPSR)  returns 0x01000000 (0000ms, 0750ms total)
TF700 009:342 JLINK_Step() -- Read from C cache (2 bytes @ 0x080024E8) -- Simulated  returns 0x00 (0000ms, 0750ms total)
TF700 009:342 JLINK_ReadReg(R15 (PC))  returns 0x080024EA (0000ms, 0750ms total)
TF700 009:342 JLINK_ReadReg(XPSR)  returns 0x01000000 (0000ms, 0750ms total)
TF700 009:342 JLINK_Step() -- Read from C cache (2 bytes @ 0x080024EA) -- Not simulated -- CPU_WriteMem(4 bytes @ 0xE0001004)  returns 0x00 (0006ms, 0756ms total)
TF700 009:348 JLINK_ReadReg(R15 (PC))  returns 0x080024EC (0000ms, 0756ms total)
TF700 009:348 JLINK_ReadReg(XPSR)  returns 0x01000000 (0000ms, 0756ms total)
TF700 009:348 JLINK_ReadReg(R0)  returns 0x00001000 (0000ms, 0756ms total)
TF700 009:348 JLINK_ReadReg(R1)  returns 0x40023844 (0000ms, 0756ms total)
TF700 009:348 JLINK_ReadReg(R2)  returns 0xE000E004 (0000ms, 0756ms total)
TF700 009:348 JLINK_ReadReg(R3)  returns 0x00000050 (0000ms, 0756ms total)
TF700 009:348 JLINK_ReadReg(R4)  returns 0x0800339C (0000ms, 0756ms total)
TF700 009:348 JLINK_ReadReg(R5)  returns 0x0800339C (0000ms, 0756ms total)
TF700 009:348 JLINK_ReadReg(R6)  returns 0x00000000 (0000ms, 0756ms total)
TF700 009:348 JLINK_ReadReg(R7)  returns 0x00000000 (0000ms, 0756ms total)
TF700 009:348 JLINK_ReadReg(R8)  returns 0x00000000 (0000ms, 0756ms total)
TF700 009:348 JLINK_ReadReg(R9)  returns 0x00000000 (0000ms, 0756ms total)
TF700 009:348 JLINK_ReadReg(R10)  returns 0x00000000 (0000ms, 0756ms total)
TF700 009:348 JLINK_ReadReg(R11)  returns 0x00000000 (0001ms, 0757ms total)
TF700 009:349 JLINK_ReadReg(R12)  returns 0x00000000 (0000ms, 0757ms total)
TF700 009:349 JLINK_ReadReg(R13 (SP))  returns 0x20000568 (0000ms, 0757ms total)
TF700 009:349 JLINK_ReadReg(R14)  returns 0x0800335B (0000ms, 0757ms total)
TF700 009:349 JLINK_ReadReg(R15 (PC))  returns 0x080024EC (0000ms, 0757ms total)
TF700 009:349 JLINK_ReadReg(XPSR)  returns 0x01000000 (0000ms, 0757ms total)
TF700 009:349 JLINK_ReadReg(MSP)  returns 0x20000568 (0000ms, 0757ms total)
TF700 009:349 JLINK_ReadReg(PSP)  returns 0x00000000 (0000ms, 0757ms total)
TF700 009:349 JLINK_ReadReg(CFBP)  returns 0x00000000 (0000ms, 0757ms total)
TF700 009:349 JLINK_ReadReg(FPSCR)  returns 0x00000000 (0004ms, 0761ms total)
TF700 009:353 JLINK_ReadReg(FPS0)  returns 0x00000000 (0000ms, 0761ms total)
TF700 009:353 JLINK_ReadReg(FPS1)  returns 0x00000000 (0001ms, 0762ms total)
TF700 009:354 JLINK_ReadReg(FPS2)  returns 0x00000000 (0000ms, 0762ms total)
TF700 009:354 JLINK_ReadReg(FPS3)  returns 0x00000000 (0000ms, 0762ms total)
TF700 009:354 JLINK_ReadReg(FPS4)  returns 0x00000000 (0000ms, 0762ms total)
TF700 009:354 JLINK_ReadReg(FPS5)  returns 0x00000000 (0000ms, 0762ms total)
TF700 009:354 JLINK_ReadReg(FPS6)  returns 0x00000000 (0000ms, 0762ms total)
TF700 009:354 JLINK_ReadReg(FPS7)  returns 0x00000000 (0000ms, 0762ms total)
TF700 009:354 JLINK_ReadReg(FPS8)  returns 0x00000000 (0000ms, 0762ms total)
TF700 009:354 JLINK_ReadReg(FPS9)  returns 0x00000000 (0000ms, 0762ms total)
TF700 009:354 JLINK_ReadReg(FPS10)  returns 0x00000000 (0000ms, 0762ms total)
TF700 009:354 JLINK_ReadReg(FPS11)  returns 0x00000000 (0000ms, 0762ms total)
TF700 009:354 JLINK_ReadReg(FPS12)  returns 0x00000000 (0000ms, 0762ms total)
TF700 009:354 JLINK_ReadReg(FPS13)  returns 0x00000000 (0000ms, 0762ms total)
TF700 009:354 JLINK_ReadReg(FPS14)  returns 0x00000000 (0000ms, 0762ms total)
TF700 009:354 JLINK_ReadReg(FPS15)  returns 0x00000000 (0000ms, 0762ms total)
TF700 009:354 JLINK_ReadReg(FPS16)  returns 0x00000000 (0000ms, 0762ms total)
TF700 009:354 JLINK_ReadReg(FPS17)  returns 0x00000000 (0001ms, 0763ms total)
TF700 009:355 JLINK_ReadReg(FPS18)  returns 0x00000000 (0000ms, 0763ms total)
TF700 009:355 JLINK_ReadReg(FPS19)  returns 0x00000000 (0000ms, 0763ms total)
TF700 009:355 JLINK_ReadReg(FPS20)  returns 0x00000000 (0000ms, 0763ms total)
TF700 009:355 JLINK_ReadReg(FPS21)  returns 0x00000000 (0000ms, 0763ms total)
TF700 009:355 JLINK_ReadReg(FPS22)  returns 0x00000000 (0000ms, 0763ms total)
TF700 009:355 JLINK_ReadReg(FPS23)  returns 0x00000000 (0000ms, 0763ms total)
TF700 009:355 JLINK_ReadReg(FPS24)  returns 0x00000000 (0000ms, 0763ms total)
